Sample in Buffer,Sample in Window,TRIGGER,byte_cnt[7:0],pck_cnt[14:0],miso_data[7:0],mosi_data[7:0],display_data,miso,mosi,sck,ss
Radix - UNSIGNED,UNSIGNED,UNSIGNED,UNSIGNED,UNSIGNED,HEX,HEX,HEX,HEX,HEX,HEX,HEX
0,0,0,1,576,ff,01,1,1,0,0,0
1,1,0,2,576,ff,02,1,1,0,0,0
2,2,0,3,576,ff,03,1,1,0,0,0
3,3,0,4,576,ff,04,1,1,0,0,0
4,4,0,5,576,ff,05,1,1,0,0,0
5,5,0,1,577,ff,01,1,1,0,0,0
6,6,0,2,577,ff,02,1,1,0,0,0
7,7,0,3,577,ff,03,1,1,0,0,0
8,8,0,4,577,ff,04,1,1,0,0,0
9,9,0,5,577,ff,05,1,1,0,0,0
10,10,0,1,578,ff,01,1,1,0,0,0
11,11,0,2,578,ff,02,1,1,0,0,0
12,12,0,3,578,ff,03,1,1,0,0,0
13,13,0,4,578,ff,04,1,1,0,0,0
14,14,0,5,578,ff,05,1,1,0,0,0
15,15,0,1,579,ff,01,1,1,0,0,0
16,16,0,2,579,ff,02,1,1,0,0,0
17,17,0,3,579,ff,03,1,1,0,0,0
18,18,0,4,579,ff,04,1,1,0,0,0
19,19,0,5,579,ff,05,1,1,0,0,0
20,20,0,1,580,ff,01,1,1,0,0,0
21,21,0,2,580,ff,02,1,1,0,0,0
22,22,0,3,580,ff,03,1,1,0,0,0
23,23,0,4,580,ff,04,1,1,0,0,0
24,24,0,5,580,ff,05,1,1,0,0,0
25,25,0,1,581,ff,01,1,1,0,0,0
26,26,0,2,581,ff,02,1,1,0,0,0
27,27,0,3,581,ff,03,1,1,0,0,0
28,28,0,4,581,ff,04,1,1,0,0,0
29,29,0,5,581,ff,05,1,1,0,0,0
30,30,0,1,582,ff,01,1,1,0,0,0
31,31,0,2,582,ff,02,1,1,0,0,0
32,32,0,3,582,ff,03,1,1,0,0,0
33,33,0,4,582,ff,04,1,1,0,0,0
34,34,0,5,582,ff,05,1,1,0,0,0
35,35,0,1,583,ff,01,1,1,0,0,0
36,36,0,2,583,ff,02,1,1,0,0,0
37,37,0,3,583,ff,03,1,1,0,0,0
38,38,0,4,583,ff,04,1,1,0,0,0
39,39,0,5,583,ff,05,1,1,0,0,0
40,40,0,1,584,ff,01,1,1,0,0,0
41,41,0,2,584,ff,02,1,1,0,0,0
42,42,0,3,584,ff,03,1,1,0,0,0
43,43,0,4,584,ff,04,1,1,0,0,0
44,44,0,5,584,ff,05,1,1,0,0,0
45,45,0,1,585,ff,01,1,1,0,0,0
46,46,0,2,585,ff,02,1,1,0,0,0
47,47,0,3,585,ff,03,1,1,0,0,0
48,48,0,4,585,ff,04,1,1,0,0,0
49,49,0,5,585,ff,05,1,1,0,0,0
50,50,0,1,586,ff,01,1,1,0,0,0
51,51,0,2,586,ff,02,1,1,0,0,0
52,52,0,3,586,ff,03,1,1,0,0,0
53,53,0,4,586,ff,04,1,1,0,0,0
54,54,0,5,586,ff,05,1,1,0,0,0
55,55,0,1,587,ff,01,1,1,0,0,0
56,56,0,2,587,ff,02,1,1,0,0,0
57,57,0,3,587,ff,03,1,1,0,0,0
58,58,0,4,587,ff,04,1,1,0,0,0
59,59,0,5,587,ff,05,1,1,0,0,0
60,60,0,1,588,ff,01,1,1,0,0,0
61,61,0,2,588,ff,02,1,1,0,0,0
62,62,0,3,588,ff,03,1,1,0,0,0
63,63,0,4,588,ff,04,1,1,0,0,0
64,64,0,5,588,ff,05,1,1,0,0,0
65,65,0,1,589,ff,01,1,1,0,0,0
66,66,0,2,589,ff,02,1,1,0,0,0
67,67,0,3,589,ff,03,1,1,0,0,0
68,68,0,4,589,ff,04,1,1,0,0,0
69,69,0,5,589,ff,05,1,1,0,0,0
70,70,0,1,590,ff,01,1,1,0,0,0
71,71,0,2,590,ff,02,1,1,0,0,0
72,72,0,3,590,ff,03,1,1,0,0,0
73,73,0,4,590,ff,04,1,1,0,0,0
74,74,0,5,590,ff,05,1,1,0,0,0
75,75,0,1,591,ff,01,1,1,0,0,0
76,76,0,2,591,ff,02,1,1,0,0,0
77,77,0,3,591,ff,03,1,1,0,0,0
78,78,0,4,591,ff,04,1,1,0,0,0
79,79,0,5,591,ff,05,1,1,0,0,0
80,80,0,1,592,ff,01,1,1,0,0,0
81,81,0,2,592,ff,02,1,1,0,0,0
82,82,0,3,592,ff,03,1,1,0,0,0
83,83,0,4,592,ff,04,1,1,0,0,0
84,84,0,5,592,ff,05,1,1,0,0,0
85,85,0,1,593,ff,01,1,1,0,0,0
86,86,0,2,593,ff,02,1,1,0,0,0
87,87,0,3,593,ff,03,1,1,0,0,0
88,88,0,4,593,ff,04,1,1,0,0,0
89,89,0,5,593,ff,05,1,1,0,0,0
90,90,0,1,594,ff,01,1,1,0,0,0
91,91,0,2,594,ff,02,1,1,0,0,0
92,92,0,3,594,ff,03,1,1,0,0,0
93,93,0,4,594,ff,04,1,1,0,0,0
94,94,0,5,594,ff,05,1,1,0,0,0
95,95,0,1,595,ff,01,1,1,0,0,0
96,96,0,2,595,ff,02,1,1,0,0,0
97,97,0,3,595,ff,03,1,1,0,0,0
98,98,0,4,595,ff,04,1,1,0,0,0
99,99,0,5,595,ff,05,1,1,0,0,0
100,100,0,1,596,ff,01,1,1,0,0,0
101,101,0,2,596,ff,02,1,1,0,0,0
102,102,0,3,596,ff,03,1,1,0,0,0
103,103,0,4,596,ff,04,1,1,0,0,0
104,104,0,5,596,ff,05,1,1,0,0,0
105,105,0,1,597,ff,01,1,1,0,0,0
106,106,0,2,597,ff,02,1,1,0,0,0
107,107,0,3,597,ff,03,1,1,0,0,0
108,108,0,4,597,ff,04,1,1,0,0,0
109,109,0,5,597,ff,05,1,1,0,0,0
110,110,0,1,598,ff,01,1,1,0,0,0
111,111,0,2,598,ff,02,1,1,0,0,0
112,112,0,3,598,ff,03,1,1,0,0,0
113,113,0,4,598,ff,04,1,1,0,0,0
114,114,0,5,598,ff,05,1,1,0,0,0
115,115,0,1,599,ff,01,1,1,0,0,0
116,116,0,2,599,ff,02,1,1,0,0,0
117,117,0,3,599,ff,03,1,1,0,0,0
118,118,0,4,599,ff,04,1,1,0,0,0
119,119,0,5,599,ff,05,1,1,0,0,0
120,120,0,1,600,ff,01,1,1,0,0,0
121,121,0,2,600,ff,02,1,1,0,0,0
122,122,0,3,600,ff,03,1,1,0,0,0
123,123,0,4,600,ff,04,1,1,0,0,0
124,124,0,5,600,ff,05,1,1,0,0,0
125,125,0,1,601,ff,01,1,1,0,0,0
126,126,0,2,601,ff,02,1,1,0,0,0
127,127,0,3,601,ff,03,1,1,0,0,0
128,128,0,4,601,ff,04,1,1,0,0,0
129,129,0,5,601,ff,05,1,1,0,0,0
130,130,0,1,602,ff,01,1,1,0,0,0
131,131,0,2,602,ff,02,1,1,0,0,0
132,132,0,3,602,ff,03,1,1,0,0,0
133,133,0,4,602,ff,04,1,1,0,0,0
134,134,0,5,602,ff,05,1,1,0,0,0
135,135,0,1,603,ff,01,1,1,0,0,0
136,136,0,2,603,ff,02,1,1,0,0,0
137,137,0,3,603,ff,03,1,1,0,0,0
138,138,0,4,603,ff,04,1,1,0,0,0
139,139,0,5,603,ff,05,1,1,0,0,0
140,140,0,1,604,ff,01,1,1,0,0,0
141,141,0,2,604,ff,02,1,1,0,0,0
142,142,0,3,604,ff,03,1,1,0,0,0
143,143,0,4,604,ff,04,1,1,0,0,0
144,144,0,5,604,ff,05,1,1,0,0,0
145,145,0,1,605,ff,01,1,1,0,0,0
146,146,0,2,605,ff,02,1,1,0,0,0
147,147,0,3,605,ff,03,1,1,0,0,0
148,148,0,4,605,ff,04,1,1,0,0,0
149,149,0,5,605,ff,05,1,1,0,0,0
150,150,0,1,606,ff,01,1,1,0,0,0
151,151,0,2,606,ff,02,1,1,0,0,0
152,152,0,3,606,ff,03,1,1,0,0,0
153,153,0,4,606,ff,04,1,1,0,0,0
154,154,0,5,606,ff,05,1,1,0,0,0
155,155,0,1,607,ff,01,1,1,0,0,0
156,156,0,2,607,ff,02,1,1,0,0,0
157,157,0,3,607,ff,03,1,1,0,0,0
158,158,0,4,607,ff,04,1,1,0,0,0
159,159,0,5,607,ff,05,1,1,0,0,0
160,160,0,1,608,ff,01,1,1,0,0,0
161,161,0,2,608,ff,02,1,1,0,0,0
162,162,0,3,608,ff,03,1,1,0,0,0
163,163,0,4,608,ff,04,1,1,0,0,0
164,164,0,5,608,ff,05,1,1,0,0,0
165,165,0,1,609,ff,01,1,1,0,0,0
166,166,0,2,609,ff,02,1,1,0,0,0
167,167,0,3,609,ff,03,1,1,0,0,0
168,168,0,4,609,ff,04,1,1,0,0,0
169,169,0,5,609,ff,05,1,1,0,0,0
170,170,0,1,610,ff,01,1,1,0,0,0
171,171,0,2,610,ff,02,1,1,0,0,0
172,172,0,3,610,ff,03,1,1,0,0,0
173,173,0,4,610,ff,04,1,1,0,0,0
174,174,0,5,610,ff,05,1,1,0,0,0
175,175,0,1,611,ff,01,1,1,0,0,0
176,176,0,2,611,ff,02,1,1,0,0,0
177,177,0,3,611,ff,03,1,1,0,0,0
178,178,0,4,611,ff,04,1,1,0,0,0
179,179,0,5,611,ff,05,1,1,0,0,0
180,180,0,1,612,ff,01,1,1,0,0,0
181,181,0,2,612,ff,02,1,1,0,0,0
182,182,0,3,612,ff,03,1,1,0,0,0
183,183,0,4,612,ff,04,1,1,0,0,0
184,184,0,5,612,ff,05,1,1,0,0,0
185,185,0,1,613,ff,01,1,1,0,0,0
186,186,0,2,613,ff,02,1,1,0,0,0
187,187,0,3,613,ff,03,1,1,0,0,0
188,188,0,4,613,ff,04,1,1,0,0,0
189,189,0,5,613,ff,05,1,1,0,0,0
190,190,0,1,614,ff,01,1,1,0,0,0
191,191,0,2,614,ff,02,1,1,0,0,0
192,192,0,3,614,ff,03,1,1,0,0,0
193,193,0,4,614,ff,04,1,1,0,0,0
194,194,0,5,614,ff,05,1,1,0,0,0
195,195,0,1,615,ff,01,1,1,0,0,0
196,196,0,2,615,ff,02,1,1,0,0,0
197,197,0,3,615,ff,03,1,1,0,0,0
198,198,0,4,615,ff,04,1,1,0,0,0
199,199,0,5,615,ff,05,1,1,0,0,0
200,200,0,1,616,ff,01,1,1,0,0,0
201,201,0,2,616,ff,02,1,1,0,0,0
202,202,0,3,616,ff,03,1,1,0,0,0
203,203,0,4,616,ff,04,1,1,0,0,0
204,204,0,5,616,ff,05,1,1,0,0,0
205,205,0,1,617,ff,01,1,1,0,0,0
206,206,0,2,617,ff,02,1,1,0,0,0
207,207,0,3,617,ff,03,1,1,0,0,0
208,208,0,4,617,ff,04,1,1,0,0,0
209,209,0,5,617,ff,05,1,1,0,0,0
210,210,0,1,618,ff,01,1,1,0,0,0
211,211,0,2,618,ff,02,1,1,0,0,0
212,212,0,3,618,ff,03,1,1,0,0,0
213,213,0,4,618,ff,04,1,1,0,0,0
214,214,0,5,618,ff,05,1,1,0,0,0
215,215,0,1,619,ff,01,1,1,0,0,0
216,216,0,2,619,ff,02,1,1,0,0,0
217,217,0,3,619,ff,03,1,1,0,0,0
218,218,0,4,619,ff,04,1,1,0,0,0
219,219,0,5,619,ff,05,1,1,0,0,0
220,220,0,1,620,ff,01,1,1,0,0,0
221,221,0,2,620,ff,02,1,1,0,0,0
222,222,0,3,620,ff,03,1,1,0,0,0
223,223,0,4,620,ff,04,1,1,0,0,0
224,224,0,5,620,ff,05,1,1,0,0,0
225,225,0,1,621,ff,01,1,1,0,0,0
226,226,0,2,621,ff,02,1,1,0,0,0
227,227,0,3,621,ff,03,1,1,0,0,0
228,228,0,4,621,ff,04,1,1,0,0,0
229,229,0,5,621,ff,05,1,1,0,0,0
230,230,0,1,622,ff,01,1,1,0,0,0
231,231,0,2,622,ff,02,1,1,0,0,0
232,232,0,3,622,ff,03,1,1,0,0,0
233,233,0,4,622,ff,04,1,1,0,0,0
234,234,0,5,622,ff,05,1,1,0,0,0
235,235,0,1,623,ff,01,1,1,0,0,0
236,236,0,2,623,ff,02,1,1,0,0,0
237,237,0,3,623,ff,03,1,1,0,0,0
238,238,0,4,623,ff,04,1,1,0,0,0
239,239,0,5,623,ff,05,1,1,0,0,0
240,240,0,1,624,ff,01,1,1,0,0,0
241,241,0,2,624,ff,02,1,1,0,0,0
242,242,0,3,624,ff,03,1,1,0,0,0
243,243,0,4,624,ff,04,1,1,0,0,0
244,244,0,5,624,ff,05,1,1,0,0,0
245,245,0,1,625,ff,01,1,1,0,0,0
246,246,0,2,625,ff,02,1,1,0,0,0
247,247,0,3,625,ff,03,1,1,0,0,0
248,248,0,4,625,ff,04,1,1,0,0,0
249,249,0,5,625,ff,05,1,1,0,0,0
250,250,0,1,626,ff,01,1,1,0,0,0
251,251,0,2,626,ff,02,1,1,0,0,0
252,252,0,3,626,ff,03,1,1,0,0,0
253,253,0,4,626,ff,04,1,1,0,0,0
254,254,0,5,626,ff,05,1,1,0,0,0
255,255,0,1,627,ff,01,1,1,0,0,0
256,256,0,2,627,ff,02,1,1,0,0,0
257,257,0,3,627,ff,03,1,1,0,0,0
258,258,0,4,627,ff,04,1,1,0,0,0
259,259,0,5,627,ff,05,1,1,0,0,0
260,260,0,1,628,ff,01,1,1,0,0,0
261,261,0,2,628,ff,02,1,1,0,0,0
262,262,0,3,628,ff,03,1,1,0,0,0
263,263,0,4,628,ff,04,1,1,0,0,0
264,264,0,5,628,ff,05,1,1,0,0,0
265,265,0,1,629,ff,01,1,1,0,0,0
266,266,0,2,629,ff,02,1,1,0,0,0
267,267,0,3,629,ff,03,1,1,0,0,0
268,268,0,4,629,ff,04,1,1,0,0,0
269,269,0,5,629,ff,05,1,1,0,0,0
270,270,0,1,630,ff,01,1,1,0,0,0
271,271,0,2,630,ff,02,1,1,0,0,0
272,272,0,3,630,ff,03,1,1,0,0,0
273,273,0,4,630,ff,04,1,1,0,0,0
274,274,0,5,630,ff,05,1,1,0,0,0
275,275,0,1,631,ff,01,1,1,0,0,0
276,276,0,2,631,ff,02,1,1,0,0,0
277,277,0,3,631,ff,03,1,1,0,0,0
278,278,0,4,631,ff,04,1,1,0,0,0
279,279,0,5,631,ff,05,1,1,0,0,0
280,280,0,1,632,ff,01,1,1,0,0,0
281,281,0,2,632,ff,02,1,1,0,0,0
282,282,0,3,632,ff,03,1,1,0,0,0
283,283,0,4,632,ff,04,1,1,0,0,0
284,284,0,5,632,ff,05,1,1,0,0,0
285,285,0,1,633,ff,01,1,1,0,0,0
286,286,0,2,633,ff,02,1,1,0,0,0
287,287,0,3,633,ff,03,1,1,0,0,0
288,288,0,4,633,ff,04,1,1,0,0,0
289,289,0,5,633,ff,05,1,1,0,0,0
290,290,0,1,634,ff,01,1,1,0,0,0
291,291,0,2,634,ff,02,1,1,0,0,0
292,292,0,3,634,ff,03,1,1,0,0,0
293,293,0,4,634,ff,04,1,1,0,0,0
294,294,0,5,634,ff,05,1,1,0,0,0
295,295,0,1,635,ff,01,1,1,0,0,0
296,296,0,2,635,ff,02,1,1,0,0,0
297,297,0,3,635,ff,03,1,1,0,0,0
298,298,0,4,635,ff,04,1,1,0,0,0
299,299,0,5,635,ff,05,1,1,0,0,0
300,300,0,1,636,ff,01,1,1,0,0,0
301,301,0,2,636,ff,02,1,1,0,0,0
302,302,0,3,636,ff,03,1,1,0,0,0
303,303,0,4,636,ff,04,1,1,0,0,0
304,304,0,5,636,ff,05,1,1,0,0,0
305,305,0,1,637,ff,01,1,1,0,0,0
306,306,0,2,637,ff,02,1,1,0,0,0
307,307,0,3,637,ff,03,1,1,0,0,0
308,308,0,4,637,ff,04,1,1,0,0,0
309,309,0,5,637,ff,05,1,1,0,0,0
310,310,0,1,638,ff,01,1,1,0,0,0
311,311,0,2,638,ff,02,1,1,0,0,0
312,312,0,3,638,ff,03,1,1,0,0,0
313,313,0,4,638,ff,04,1,1,0,0,0
314,314,0,5,638,ff,05,1,1,0,0,0
315,315,0,1,639,ff,01,1,1,0,0,0
316,316,0,2,639,ff,02,1,1,0,0,0
317,317,0,3,639,ff,03,1,1,0,0,0
318,318,0,4,639,ff,04,1,1,0,0,0
319,319,0,5,639,ff,05,1,1,0,0,0
320,320,0,1,640,ff,01,1,1,0,0,0
321,321,0,2,640,ff,02,1,1,0,0,0
322,322,0,3,640,ff,03,1,1,0,0,0
323,323,0,4,640,ff,04,1,1,0,0,0
324,324,0,5,640,ff,05,1,1,0,0,0
325,325,0,1,641,ff,01,1,1,0,0,0
326,326,0,2,641,ff,02,1,1,0,0,0
327,327,0,3,641,ff,03,1,1,0,0,0
328,328,0,4,641,ff,04,1,1,0,0,0
329,329,0,5,641,ff,05,1,1,0,0,0
330,330,0,1,642,ff,01,1,1,0,0,0
331,331,0,2,642,ff,02,1,1,0,0,0
332,332,0,3,642,ff,03,1,1,0,0,0
333,333,0,4,642,ff,04,1,1,0,0,0
334,334,0,5,642,ff,05,1,1,0,0,0
335,335,0,1,643,ff,01,1,1,0,0,0
336,336,0,2,643,ff,02,1,1,0,0,0
337,337,0,3,643,ff,03,1,1,0,0,0
338,338,0,4,643,ff,04,1,1,0,0,0
339,339,0,5,643,ff,05,1,1,0,0,0
340,340,0,1,644,ff,01,1,1,0,0,0
341,341,0,2,644,ff,02,1,1,0,0,0
342,342,0,3,644,ff,03,1,1,0,0,0
343,343,0,4,644,ff,04,1,1,0,0,0
344,344,0,5,644,ff,05,1,1,0,0,0
345,345,0,1,645,ff,01,1,1,0,0,0
346,346,0,2,645,ff,02,1,1,0,0,0
347,347,0,3,645,ff,03,1,1,0,0,0
348,348,0,4,645,ff,04,1,1,0,0,0
349,349,0,5,645,ff,05,1,1,0,0,0
350,350,0,1,646,ff,01,1,1,0,0,0
351,351,0,2,646,ff,02,1,1,0,0,0
352,352,0,3,646,ff,03,1,1,0,0,0
353,353,0,4,646,ff,04,1,1,0,0,0
354,354,0,5,646,ff,05,1,1,0,0,0
355,355,0,1,647,ff,01,1,1,0,0,0
356,356,0,2,647,ff,02,1,1,0,0,0
357,357,0,3,647,ff,03,1,1,0,0,0
358,358,0,4,647,ff,04,1,1,0,0,0
359,359,0,5,647,ff,05,1,1,0,0,0
360,360,0,1,648,ff,01,1,1,0,0,0
361,361,0,2,648,ff,02,1,1,0,0,0
362,362,0,3,648,ff,03,1,1,0,0,0
363,363,0,4,648,ff,04,1,1,0,0,0
364,364,0,5,648,ff,05,1,1,0,0,0
365,365,0,1,649,ff,01,1,1,0,0,0
366,366,0,2,649,ff,02,1,1,0,0,0
367,367,0,3,649,ff,03,1,1,0,0,0
368,368,0,4,649,ff,04,1,1,0,0,0
369,369,0,5,649,ff,05,1,1,0,0,0
370,370,0,1,650,ff,01,1,1,0,0,0
371,371,0,2,650,ff,02,1,1,0,0,0
372,372,0,3,650,ff,03,1,1,0,0,0
373,373,0,4,650,ff,04,1,1,0,0,0
374,374,0,5,650,ff,05,1,1,0,0,0
375,375,0,1,651,ff,01,1,1,0,0,0
376,376,0,2,651,ff,02,1,1,0,0,0
377,377,0,3,651,ff,03,1,1,0,0,0
378,378,0,4,651,ff,04,1,1,0,0,0
379,379,0,5,651,ff,05,1,1,0,0,0
380,380,0,1,652,ff,01,1,1,0,0,0
381,381,0,2,652,ff,02,1,1,0,0,0
382,382,0,3,652,ff,03,1,1,0,0,0
383,383,0,4,652,ff,04,1,1,0,0,0
384,384,0,5,652,ff,05,1,1,0,0,0
385,385,0,1,653,ff,01,1,1,0,0,0
386,386,0,2,653,ff,02,1,1,0,0,0
387,387,0,3,653,ff,03,1,1,0,0,0
388,388,0,4,653,ff,04,1,1,0,0,0
389,389,0,5,653,ff,05,1,1,0,0,0
390,390,0,1,654,ff,01,1,1,0,0,0
391,391,0,2,654,ff,02,1,1,0,0,0
392,392,0,3,654,ff,03,1,1,0,0,0
393,393,0,4,654,ff,04,1,1,0,0,0
394,394,0,5,654,ff,05,1,1,0,0,0
395,395,0,1,655,ff,01,1,1,0,0,0
396,396,0,2,655,ff,02,1,1,0,0,0
397,397,0,3,655,ff,03,1,1,0,0,0
398,398,0,4,655,ff,04,1,1,0,0,0
399,399,0,5,655,ff,05,1,1,0,0,0
400,400,0,1,656,ff,01,1,1,0,0,0
401,401,0,2,656,ff,02,1,1,0,0,0
402,402,0,3,656,ff,03,1,1,0,0,0
403,403,0,4,656,ff,04,1,1,0,0,0
404,404,0,5,656,ff,05,1,1,0,0,0
405,405,0,1,657,ff,01,1,1,0,0,0
406,406,0,2,657,ff,02,1,1,0,0,0
407,407,0,3,657,ff,03,1,1,0,0,0
408,408,0,4,657,ff,04,1,1,0,0,0
409,409,0,5,657,ff,05,1,1,0,0,0
410,410,0,1,658,ff,01,1,1,0,0,0
411,411,0,2,658,ff,02,1,1,0,0,0
412,412,0,3,658,ff,03,1,1,0,0,0
413,413,0,4,658,ff,04,1,1,0,0,0
414,414,0,5,658,ff,05,1,1,0,0,0
415,415,0,1,659,ff,01,1,1,0,0,0
416,416,0,2,659,ff,02,1,1,0,0,0
417,417,0,3,659,ff,03,1,1,0,0,0
418,418,0,4,659,ff,04,1,1,0,0,0
419,419,0,5,659,ff,05,1,1,0,0,0
420,420,0,1,660,ff,01,1,1,0,0,0
421,421,0,2,660,ff,02,1,1,0,0,0
422,422,0,3,660,ff,03,1,1,0,0,0
423,423,0,4,660,ff,04,1,1,0,0,0
424,424,0,5,660,ff,05,1,1,0,0,0
425,425,0,1,661,ff,01,1,1,0,0,0
426,426,0,2,661,ff,02,1,1,0,0,0
427,427,0,3,661,ff,03,1,1,0,0,0
428,428,0,4,661,ff,04,1,1,0,0,0
429,429,0,5,661,ff,05,1,1,0,0,0
430,430,0,1,662,ff,01,1,1,0,0,0
431,431,0,2,662,ff,02,1,1,0,0,0
432,432,0,3,662,ff,03,1,1,0,0,0
433,433,0,4,662,ff,04,1,1,0,0,0
434,434,0,5,662,ff,05,1,1,0,0,0
435,435,0,1,663,ff,01,1,1,0,0,0
436,436,0,2,663,ff,02,1,1,0,0,0
437,437,0,3,663,ff,03,1,1,0,0,0
438,438,0,4,663,ff,04,1,1,0,0,0
439,439,0,5,663,ff,05,1,1,0,0,0
440,440,0,1,664,ff,01,1,1,0,0,0
441,441,0,2,664,ff,02,1,1,0,0,0
442,442,0,3,664,ff,03,1,1,0,0,0
443,443,0,4,664,ff,04,1,1,0,0,0
444,444,0,5,664,ff,05,1,1,0,0,0
445,445,0,1,665,ff,01,1,1,0,0,0
446,446,0,2,665,ff,02,1,1,0,0,0
447,447,0,3,665,ff,03,1,1,0,0,0
448,448,0,4,665,ff,04,1,1,0,0,0
449,449,0,5,665,ff,05,1,1,0,0,0
450,450,0,1,666,ff,01,1,1,0,0,0
451,451,0,2,666,ff,02,1,1,0,0,0
452,452,0,3,666,ff,03,1,1,0,0,0
453,453,0,4,666,ff,04,1,1,0,0,0
454,454,0,5,666,ff,05,1,1,0,0,0
455,455,0,1,667,ff,01,1,1,0,0,0
456,456,0,2,667,ff,02,1,1,0,0,0
457,457,0,3,667,ff,03,1,1,0,0,0
458,458,0,4,667,ff,04,1,1,0,0,0
459,459,0,5,667,ff,05,1,1,0,0,0
460,460,0,1,668,ff,01,1,1,0,0,0
461,461,0,2,668,ff,02,1,1,0,0,0
462,462,0,3,668,ff,03,1,1,0,0,0
463,463,0,4,668,ff,04,1,1,0,0,0
464,464,0,5,668,ff,05,1,1,0,0,0
465,465,0,1,669,ff,01,1,1,0,0,0
466,466,0,2,669,ff,02,1,1,0,0,0
467,467,0,3,669,ff,03,1,1,0,0,0
468,468,0,4,669,ff,04,1,1,0,0,0
469,469,0,5,669,ff,05,1,1,0,0,0
470,470,0,1,670,ff,01,1,1,0,0,0
471,471,0,2,670,ff,02,1,1,0,0,0
472,472,0,3,670,ff,03,1,1,0,0,0
473,473,0,4,670,ff,04,1,1,0,0,0
474,474,0,5,670,ff,05,1,1,0,0,0
475,475,0,1,671,ff,01,1,1,0,0,0
476,476,0,2,671,ff,02,1,1,0,0,0
477,477,0,3,671,ff,03,1,1,0,0,0
478,478,0,4,671,ff,04,1,1,0,0,0
479,479,0,5,671,ff,05,1,1,0,0,0
480,480,0,1,672,ff,01,1,1,0,0,0
481,481,0,2,672,ff,02,1,1,0,0,0
482,482,0,3,672,ff,03,1,1,0,0,0
483,483,0,4,672,ff,04,1,1,0,0,0
484,484,0,5,672,ff,05,1,1,0,0,0
485,485,0,1,673,ff,01,1,1,0,0,0
486,486,0,2,673,ff,02,1,1,0,0,0
487,487,0,3,673,ff,03,1,1,0,0,0
488,488,0,4,673,ff,04,1,1,0,0,0
489,489,0,5,673,ff,05,1,1,0,0,0
490,490,0,1,674,ff,01,1,1,0,0,0
491,491,0,2,674,ff,02,1,1,0,0,0
492,492,0,3,674,ff,03,1,1,0,0,0
493,493,0,4,674,ff,04,1,1,0,0,0
494,494,0,5,674,ff,05,1,1,0,0,0
495,495,0,1,675,ff,01,1,1,0,0,0
496,496,0,2,675,ff,02,1,1,0,0,0
497,497,0,3,675,ff,03,1,1,0,0,0
498,498,0,4,675,ff,04,1,1,0,0,0
499,499,0,5,675,ff,05,1,1,0,0,0
500,500,0,1,676,ff,01,1,1,0,0,0
501,501,0,2,676,ff,02,1,1,0,0,0
502,502,0,3,676,ff,03,1,1,0,0,0
503,503,0,4,676,ff,04,1,1,0,0,0
504,504,0,5,676,ff,05,1,1,0,0,0
505,505,0,1,677,ff,01,1,1,0,0,0
506,506,0,2,677,ff,02,1,1,0,0,0
507,507,0,3,677,ff,03,1,1,0,0,0
508,508,0,4,677,ff,04,1,1,0,0,0
509,509,0,5,677,ff,05,1,1,0,0,0
510,510,0,1,678,ff,01,1,1,0,0,0
511,511,0,2,678,ff,02,1,1,0,0,0
512,512,0,3,678,ff,03,1,1,0,0,0
513,513,0,4,678,ff,04,1,1,0,0,0
514,514,0,5,678,ff,05,1,1,0,0,0
515,515,0,1,679,ff,01,1,1,0,0,0
516,516,0,2,679,ff,02,1,1,0,0,0
517,517,0,3,679,ff,03,1,1,0,0,0
518,518,0,4,679,ff,04,1,1,0,0,0
519,519,0,5,679,ff,05,1,1,0,0,0
520,520,0,1,680,ff,01,1,1,0,0,0
521,521,0,2,680,ff,02,1,1,0,0,0
522,522,0,3,680,ff,03,1,1,0,0,0
523,523,0,4,680,ff,04,1,1,0,0,0
524,524,0,5,680,ff,05,1,1,0,0,0
525,525,0,1,681,ff,01,1,1,0,0,0
526,526,0,2,681,ff,02,1,1,0,0,0
527,527,0,3,681,ff,03,1,1,0,0,0
528,528,0,4,681,ff,04,1,1,0,0,0
529,529,0,5,681,ff,05,1,1,0,0,0
530,530,0,1,682,ff,01,1,1,0,0,0
531,531,0,2,682,ff,02,1,1,0,0,0
532,532,0,3,682,ff,03,1,1,0,0,0
533,533,0,4,682,ff,04,1,1,0,0,0
534,534,0,5,682,ff,05,1,1,0,0,0
535,535,0,1,683,ff,01,1,1,0,0,0
536,536,0,2,683,ff,02,1,1,0,0,0
537,537,0,3,683,ff,03,1,1,0,0,0
538,538,0,4,683,ff,04,1,1,0,0,0
539,539,0,5,683,ff,05,1,1,0,0,0
540,540,0,1,684,ff,01,1,1,0,0,0
541,541,0,2,684,ff,02,1,1,0,0,0
542,542,0,3,684,ff,03,1,1,0,0,0
543,543,0,4,684,ff,04,1,1,0,0,0
544,544,0,5,684,ff,05,1,1,0,0,0
545,545,0,1,685,ff,01,1,1,0,0,0
546,546,0,2,685,ff,02,1,1,0,0,0
547,547,0,3,685,ff,03,1,1,0,0,0
548,548,0,4,685,ff,04,1,1,0,0,0
549,549,0,5,685,ff,05,1,1,0,0,0
550,550,0,1,686,ff,01,1,1,0,0,0
551,551,0,2,686,ff,02,1,1,0,0,0
552,552,0,3,686,ff,03,1,1,0,0,0
553,553,0,4,686,ff,04,1,1,0,0,0
554,554,0,5,686,ff,05,1,1,0,0,0
555,555,0,1,687,ff,01,1,1,0,0,0
556,556,0,2,687,ff,02,1,1,0,0,0
557,557,0,3,687,ff,03,1,1,0,0,0
558,558,0,4,687,ff,04,1,1,0,0,0
559,559,0,5,687,ff,05,1,1,0,0,0
560,560,0,1,688,ff,01,1,1,0,0,0
561,561,0,2,688,ff,02,1,1,0,0,0
562,562,0,3,688,ff,03,1,1,0,0,0
563,563,0,4,688,ff,04,1,1,0,0,0
564,564,0,5,688,ff,05,1,1,0,0,0
565,565,0,1,689,ff,01,1,1,0,0,0
566,566,0,2,689,ff,02,1,1,0,0,0
567,567,0,3,689,ff,03,1,1,0,0,0
568,568,0,4,689,ff,04,1,1,0,0,0
569,569,0,5,689,ff,05,1,1,0,0,0
570,570,0,1,690,ff,01,1,1,0,0,0
571,571,0,2,690,ff,02,1,1,0,0,0
572,572,0,3,690,ff,03,1,1,0,0,0
573,573,0,4,690,ff,04,1,1,0,0,0
574,574,0,5,690,ff,05,1,1,0,0,0
575,575,0,1,691,ff,01,1,1,0,0,0
576,576,0,2,691,ff,02,1,1,0,0,0
577,577,0,3,691,ff,03,1,1,0,0,0
578,578,0,4,691,ff,04,1,1,0,0,0
579,579,0,5,691,ff,05,1,1,0,0,0
580,580,0,1,692,ff,01,1,1,0,0,0
581,581,0,2,692,ff,02,1,1,0,0,0
582,582,0,3,692,ff,03,1,1,0,0,0
583,583,0,4,692,ff,04,1,1,0,0,0
584,584,0,5,692,ff,05,1,1,0,0,0
585,585,0,1,693,ff,01,1,1,0,0,0
586,586,0,2,693,ff,02,1,1,0,0,0
587,587,0,3,693,ff,03,1,1,0,0,0
588,588,0,4,693,ff,04,1,1,0,0,0
589,589,0,5,693,ff,05,1,1,0,0,0
590,590,0,1,694,ff,01,1,1,0,0,0
591,591,0,2,694,ff,02,1,1,0,0,0
592,592,0,3,694,ff,03,1,1,0,0,0
593,593,0,4,694,ff,04,1,1,0,0,0
594,594,0,5,694,ff,05,1,1,0,0,0
595,595,0,1,695,ff,01,1,1,0,0,0
596,596,0,2,695,ff,02,1,1,0,0,0
597,597,0,3,695,ff,03,1,1,0,0,0
598,598,0,4,695,ff,04,1,1,0,0,0
599,599,0,5,695,ff,05,1,1,0,0,0
600,600,0,1,696,ff,01,1,1,0,0,0
601,601,0,2,696,ff,02,1,1,0,0,0
602,602,0,3,696,ff,03,1,1,0,0,0
603,603,0,4,696,ff,04,1,1,0,0,0
604,604,0,5,696,ff,05,1,1,0,0,0
605,605,0,1,697,ff,01,1,1,0,0,0
606,606,0,2,697,ff,02,1,1,0,0,0
607,607,0,3,697,ff,03,1,1,0,0,0
608,608,0,4,697,ff,04,1,1,0,0,0
609,609,0,5,697,ff,05,1,1,0,0,0
610,610,0,1,698,ff,01,1,1,0,0,0
611,611,0,2,698,ff,02,1,1,0,0,0
612,612,0,3,698,ff,03,1,1,0,0,0
613,613,0,4,698,ff,04,1,1,0,0,0
614,614,0,5,698,ff,05,1,1,0,0,0
615,615,0,1,699,ff,01,1,1,0,0,0
616,616,0,2,699,ff,02,1,1,0,0,0
617,617,0,3,699,ff,03,1,1,0,0,0
618,618,0,4,699,ff,04,1,1,0,0,0
619,619,0,5,699,ff,05,1,1,0,0,0
620,620,0,1,700,ff,01,1,1,0,0,0
621,621,0,2,700,ff,02,1,1,0,0,0
622,622,0,3,700,ff,03,1,1,0,0,0
623,623,0,4,700,ff,04,1,1,0,0,0
624,624,0,5,700,ff,05,1,1,0,0,0
